#Digilent WaveForms Network Analyzer - Bode
#Device Name: Discovery3
#Serial Number: SN:210415B99F94
#Date Time: 2023-11-06 17:02:37.021
#Start: 100 Hz
#Stop: 100000 Hz
#Steps: 1000
#Wavegen: Wavegen C1
#Amplification: 1 X
#Settle: 10 ms
#MinPeriods: 16 
#Channel: Channel 1
#Range: 5.24727 V
#Offset: -0.000166832 V
#Relative: no
#Channel: Channel 2
#Range: 5.25682 V
#Offset: 0.000282532 V
#Relative: yes
#Power Supplies: ON
#Positive Supply: ON
#Voltage: 5 V Readback: 5.00624155 V
#Negative Supply: ON
#Voltage: -5 V Readback: -4.997803377 V

Frequency (Hz),Channel 1 Magnitude (dB),Channel 2 Magnitude (dB),Channel 2 Phase (deg)
100.0000000000001,-0.03050518138000504,6.508271602929517,-101.9398961519523
100.6938631476028,-0.03051661195493699,6.565535048154651,-102.0243627045729
101.3925407558815,-0.0309713857250701,6.623418087442144,-102.1148416966729
102.0960662306047,-0.03335875652450283,6.682605173044912,-102.1963084329301
102.8044732093311,-0.03255652275593219,6.738615198146015,-102.2908158480207
103.5177955630177,-0.0328715644342056,6.796890648252409,-102.3755852649812
104.2360673976402,-0.03195842490003727,6.85329347923505,-102.4726795256299
104.9593230558228,-0.03217573416981445,6.909979185251128,-102.546702604446
105.6875971184805,-0.03156613139809522,6.967046607977477,-102.6480477855042
106.4209244064726,-0.03200233726661944,7.024871516091578,-102.7142568840445
107.1593399822672,-0.03129953851328324,7.081693598691158,-102.8223062806989
107.9028791516185,-0.03090095342646725,7.139007679737893,-102.9078838026079
108.6515774652538,-0.03190718347099669,7.196165109166107,-103.0052382412954
109.4054707205744,-0.03122160959620361,7.253956870094436,-103.0877619136874
110.1645949633658,-0.03130877459974005,7.309414556862982,-103.1689215623877
110.9289864895224,-0.03224663940431777,7.366351739518258,-103.2635606755514
111.6986818467824,-0.03167173241014631,7.422611396560663,-103.3671459753517
112.4737178364752,-0.03027527803647966,7.478544681889142,-103.4495170314803
113.2541315152813,-0.03347284916423569,7.537540355440861,-103.5376329986698
114.0399601970034,-0.03241706929476462,7.593921342228677,-103.6304668415124
114.8312414543512,-0.03192743805998131,7.648966508027372,-103.7145080610025
115.6280131207376,-0.03367247584178588,7.70669476632416,-103.8121280195583
116.4303132920877,-0.03237653213959044,7.761911858713142,-103.898080471446
117.23818032866,-0.03260997738947879,7.819946424468521,-104.0052012689567
118.0516528568807,-0.03158544068298898,7.876110292883501,-104.1160901713993
118.8707697711905,-0.03104925505958804,7.933055476199046,-104.221213255045
119.6955702359044,-0.0338443764790405,7.992098944405476,-104.3333676571026
120.5260936870843,-0.03271567392600125,8.047532763610745,-104.4277020262552
121.3623798344242,-0.03190055460809207,8.103084373208079,-104.5242102792975
122.204468663149,-0.02966132032130635,8.157660311724783,-104.6191258161229
123.0524004359263,-0.03171551453425527,8.215028830688222,-104.7161117298801
123.9062156947917,-0.03380002179276148,8.272028354214884,-104.8049921642355
124.765955263087,-0.03191342238257671,8.32584306816795,-104.9276387679948
125.6316602474122,-0.03329939272812041,8.38341661563425,-105.0173948487358
126.5033720395905,-0.03129705208558688,8.437898307907911,-105.1222139791299
127.381132318648,-0.02973394903547127,8.494317771613224,-105.209813687859
128.2649830528061,-0.03119620104617592,8.549633039018337,-105.3302803489493
129.1549665014884,-0.03281095994698392,8.607012420340023,-105.4324606885155
130.051125217341,-0.03052352964936285,8.662191868463372,-105.5416803333603
130.9535020482669,-0.03069615289102982,8.717248748259376,-105.6403893158104
131.862140139475,-0.03073189824500576,8.772826563418869,-105.735715344058
132.7770829355431,-0.03114289678169771,8.828668245919278,-105.8510716589554
133.6983741824948,-0.03070737359189466,8.883833642513817,-105.9369494182108
134.6260579298911,-0.03206785331793223,8.939416525848793,-106.0510488110843
135.560178532937,-0.032490381971955,8.995124645265975,-106.150560148252
136.5007806546015,-0.03143447622606737,9.048826373334606,-106.2519437891476
137.4479092677538,-0.0335758691928042,9.105825742422439,-106.3537970278258
138.4016096573133,-0.03202222021359576,9.160564966314219,-106.476338618159
139.3619274224143,-0.03096425172679504,9.216510820820483,-106.6105436435069
140.3289084785875,-0.03207410155452937,9.271044124575775,-106.7361892682366
141.3025990599535,-0.03064677510694579,9.324498002913847,-106.8689508758652
142.2830457214353,-0.03083318187237945,9.380796155480311,-106.9936184632709
143.2702953409832,-0.03100660255260488,9.435688042173387,-107.0958698213831
144.2643951218159,-0.03137602080027602,9.490148652285917,-107.2148734698111
145.2653925946783,-0.03027199767402971,9.544261437589155,-107.3395384942223
146.2733356201131,-0.03199092207140922,9.599580155361954,-107.4420316673797
147.2882723907503,-0.0305156633456719,9.652820100578788,-107.5545748188685
148.3102514336106,-0.03239762128659711,9.708999982098645,-107.6636903509465
149.3393216124254,-0.03118997684196826,9.763324376593749,-107.7799886525752
150.375532129974,-0.02975077372905885,9.81679453929625,-107.9208542151162
151.4189325304353,-0.02891945857897493,9.869566961580549,-108.032762073818
152.4695727017575,-0.03032479777579548,9.924624028139048,-108.1513687751529
153.5275028780424,-0.03149797620193838,9.979550857163909,-108.2618566689382
154.5927736419478,-0.03037394212280297,10.03263066241634,-108.3899170921731
155.6654359271064,-0.02997024898398423,10.08679464885026,-108.5037602563098
156.7455410205597,-0.03105452003950661,10.13999812910286,-108.6282954351125
157.8331405652118,-0.03193261692183133,10.19448404306955,-108.7432664534953
158.928286562298,-0.03315756922688207,10.24957543602941,-108.8553372052659
160.0310313738702,-0.03330718745540257,10.30295911480413,-108.9745543380494
161.1414277253022,-0.03454991103144783,10.35916617712098,-109.0916744844709
162.2595287078089,-0.03058118487787312,10.40986266066648,-109.2174013681054
163.3853877809862,-0.03486061135022801,10.46517574063219,-109.3372301463482
164.5190587753664,-0.03448246292806481,10.51797780399953,-109.4576611001793
165.6605958949915,-0.0348926047442126,10.57320234693967,-109.5785418485761
166.8100537200061,-0.03317528997650246,10.62389165604178,-109.6931582071232
167.9674872092655,-0.03451158090323924,10.67848637868384,-109.8055092695692
169.132951702965,-0.0348964829129548,10.73124460495389,-109.9411938900406
170.3065029252846,-0.03414775811111935,10.78287427458277,-110.0560178133131
171.4881969870541,-0.03519421692619763,10.83570241050431,-110.1762170930578
172.6780903884358,-0.03372043868380228,10.88858584072483,-110.3217589855634
173.8762400216252,-0.03557735406222118,10.94233416125185,-110.4406465637383
175.0827031735727,-0.03548639909884684,10.99539814500553,-110.5677022815932
176.2975375287207,-0.03840050752908711,11.04947076796731,-110.679753747552
177.5208011717636,-0.03769567951882934,11.1010167372401,-110.8097885287401
178.7525525904237,-0.03701110385962491,11.15377541962094,-110.9515014043233
179.9928506782478,-0.03920595291889251,11.20630219916585,-111.0839636077926
181.2417547374239,-0.03895741370454116,11.25654753602525,-111.2014384943561
182.4993244816154,-0.03898979246216633,11.30942763386144,-111.3351964872663
183.7656200388172,-0.04059697753809313,11.36169689776088,-111.4556483567782
185.0407019542304,-0.03761022255043289,11.41477067238098,-111.6248998527459
186.3246311931562,-0.0351138894455344,11.46444560284321,-111.7755197352493
187.6174691439123,-0.03408328132065142,11.51628993226845,-111.9281961823547
188.9192776207668,-0.03536832652287628,11.56742681499309,-112.0704825713716
190.2301188668946,-0.03474704655822335,11.61886394279198,-112.2016481158396
191.550055557353,-0.03616617466848658,11.67163525481756,-112.3393182712573
192.879150802078,-0.03581564958708939,11.72329319085239,-112.4905906229505
194.2174681489028,-0.03599099015209212,11.772582651651,-112.6280452143299
195.5650715865951,-0.03749217859958564,11.82455247004814,-112.7652492748459
196.9220255479174,-0.03808575805082476,11.87566797359556,-112.9097398143136
198.2883949127073,-0.03692499480191951,11.92563040966497,-113.0703324404934
199.6642450109795,-0.03774226103329759,11.97764624308007,-113.2093209137516
201.0496416260501,-0.0356803672230748,12.02764746669773,-113.3440140963806
202.4446509976806,-0.03626495563115622,12.07801984804755,-113.4845077390559
203.8493398252464,-0.03734219377247668,12.12784514971878,-113.6363286380286
205.2637752709254,-0.03621824192366292,12.17915243247178,-113.7644088923879
206.6880249629084,-0.03584474821174447,12.22878432178502,-113.8980841592802
208.1221569986342,-0.03746854271067761,12.28030945699933,-114.0567990562257
209.5662399480435,-0.03679834974007954,12.32928962473745,-114.2249012202092
211.0203428568597,-0.03414243252580177,12.37702506390243,-114.3752488747507
212.4845352498885,-0.03629966275963269,12.42854283556746,-114.5335746391097
213.9588871343424,-0.03536557190867622,12.47820528664655,-114.681488954356
215.4434690031887,-0.03675980843815982,12.52728269316831,-114.8499569702169
216.9383518385187,-0.0357581255416478,12.57680826129059,-114.9856120038075
218.4436071149428,-0.03597388196133562,12.62639300989053,-115.1319854905942
219.9593068030077,-0.03615753906101456,12.67419944180597,-115.2900025783037
221.4855233726362,-0.03806229041245621,12.72436265274872,-115.4471168495254
223.0223297965941,-0.0375668850174536,12.7710120361219,-115.6108609967211
224.5697995539776,-0.03798348698026243,12.82137167612747,-115.7653076231263
226.1280066337279,-0.03734634099657173,12.86884832813332,-115.9060645436729
227.6970255381682,-0.03747641321609976,12.91810205649058,-116.0511253753436
229.2769312865651,-0.03668201919557192,12.96703035272421,-116.2144218017392
230.8677994187172,-0.0386148357017073,13.01573499742115,-116.3712491318187
232.469705998565,-0.03679650576810257,13.06165062215077,-116.5182478106112
234.0827276178294,-0.0363247576900522,13.10982996366622,-116.6830719430637
235.706941399673,-0.03828830943887097,13.15814369291248,-116.8529286006832
237.3424250023869,-0.03716508146220886,13.20504916488873,-117.029946747878
238.9892566231053,-0.03565969648882999,13.25043337344249,-117.20189118362
240.6475150015427,-0.03568818530409659,13.29914847036578,-117.3595736222463
242.3172794237601,-0.034811766545612,13.34557876077062,-117.523195766518
243.9986297259553,-0.0353595454857274,13.3927696675968,-117.6924009407903
245.6916462982793,-0.03785435428009939,13.44105699744692,-117.8514280572688
247.3964100886817,-0.03839947508558503,13.48775522276208,-118.0163859505634
249.1130026067791,-0.0358846268766383,13.53271743500214,-118.187842076962
250.8415059277541,-0.03570629367012564,13.57990503722428,-118.3515558906403
252.5820026962787,-0.03547784637918918,13.62657809067804,-118.5191407517976
254.3345761304651,-0.03477052792198315,13.66992784848334,-118.6864647172234
256.0993100258462,-0.03353892993629763,13.7156663151431,-118.843562967538
257.8762887593804,-0.03430130167406457,13.76338528269109,-119.0211508425729
259.6655972934872,-0.03696512532372719,13.80876325427885,-119.185756355685
261.4673211801095,-0.03687054451788676,13.85523511408902,-119.348370444749
263.2815465648022,-0.0361750590201292,13.90140809456714,-119.5217514891141
265.1083601908542,-0.03710360553042713,13.94596763146433,-119.6964992902728
266.9478494034324,-0.03842758547477074,13.99209545947472,-119.8578744081154
268.8001021537607,-0.03926592870358455,14.03801685673367,-120.0459035201461
270.6652070033244,-0.03818416526181494,14.08408247816529,-120.211046378892
272.5432531281031,-0.03677198698831221,14.12767498153783,-120.3722237628203
274.4343303228368,-0.0366598761176004,14.17213536911459,-120.5477213543454
276.3385290053172,-0.04109648584995412,14.21964911160421,-120.7112317295375
278.2559402207125,-0.0394519875048004,14.26192732560411,-120.8879770739992
280.1866556459198,-0.03508890350937323,14.30380048295137,-121.0733140238178
282.1307675939474,-0.03761048417285268,14.34964854186629,-121.2384647326234
284.0883690183307,-0.03870377443203939,14.3950135714103,-121.4142714127913
286.0595535175745,-0.03912114605254675,14.43815521449318,-121.5928105192697
288.0444153396298,-0.03946677251732168,14.48176280596796,-121.7664962615631
290.0430493863994,-0.0419493158847568,14.52641907865054,-121.9220753627717
292.0555512182748,-0.04361921838556313,14.56917782477831,-122.1126340081183
294.0820170587067,-0.04095237173544328,14.61037333883028,-122.3094512986175
296.1225437988037,-0.03984743169567041,14.65230311186786,-122.5022909491177
298.1772290019674,-0.03977755765257913,14.69527412716806,-122.6842618352639
300.2461709085553,-0.03708241630295143,14.7356596435821,-122.8776330427436
302.329468440578,-0.03803983498215506,14.77877054540908,-123.0625787034789
304.4272212064306,-0.03945161824136169,14.82161040480662,-123.2364495472858
306.539529505653,-0.0380870725856275,14.8624594397003,-123.4209669342151
308.6664943337274,-0.03978625358497385,14.90465281326906,-123.612319125832
310.8082173869067,-0.03716932371310255,14.9456552245827,-123.7878811017998
312.9648010670754,-0.03461541778819228,14.98510463139586,-123.9705418558427
315.1363484866482,-0.03720474080281684,15.02865703040406,-124.1586597826766
317.322963473498,-0.0371415423927163,15.06808918783649,-124.3340955319986
319.5247505759214,-0.03746415574502405,15.109769521261,-124.5345553568107
321.7418150676374,-0.03664579443644748,15.14964662491887,-124.7013004831346
323.9742629528199,-0.03730999366205694,15.19092174664635,-124.8980809188968
326.2222009711674,-0.03727368758886747,15.23078677978921,-125.0902857757665
328.4857366030047,-0.03844096285660103,15.2711755168475,-125.2929415304839
330.7649780744242,-0.03530092902285887,15.30948355031134,-125.4712866785507
333.0600343624592,-0.03654948238702508,15.35041748099735,-125.6639879791738
335.3710152002932,-0.03674369979688797,15.38900943487842,-125.8468141560274
337.6980310825095,-0.03772091218854414,15.42884490130892,-126.0364740056216
340.041193270371,-0.03643923422980449,15.46811052272501,-126.2222813048923
342.4006137971426,-0.03594224830121451,15.50790492771778,-126.4182496379103
344.7764054734467,-0.03691337868741254,15.54502446662737,-126.5985294720702
347.1686818926563,-0.03465139666616612,15.58368603444048,-126.808506712795
349.5775574363279,-0.03677740283156278,15.62344427313586,-126.9769665447811
352.0031472796682,-0.03536280181879302,15.6609461970074,-127.1720213325987
354.4455673970436,-0.03704656062767831,15.69986125813107,-127.3714095142674
356.9049345675233,-0.0342792519869201,15.7363342971099,-127.5595159129882
359.3813663804629,-0.03916421131703102,15.77710708705115,-127.7461071154518
361.8749812411284,-0.03630973574414908,15.81266324819382,-127.9425915992965
364.3858983763548,-0.03440152464659171,15.84790207336867,-128.1544997740291
366.9142378402494,-0.03251691647691085,15.88290499336554,-128.3674830222291
369.4601205199306,-0.03337322871615966,15.92096110928273,-128.5444853575351
372.023668141307,-0.03243012740884683,15.95777265130113,-128.7487383055226
374.6050032748997,-0.03146836120572969,15.99315877379603,-128.9463325051492
377.2042493417001,-0.03271331672521196,16.02854408060175,-129.1464648476557
379.8215306190736,-0.03185655352071434,16.06532399231967,-129.3355643498014
382.4569722467003,-0.03275555383562567,16.10021868818929,-129.5352109985542
385.1107002325573,-0.03223947870660659,16.13603877288735,-129.7288028845271
387.7828414589461,-0.03337659765282226,16.171664717384,-129.9336414581913
390.4735236885564,-0.03184504248117467,16.20711767361645,-130.1264951331755
393.182875570577,-0.03209033634786564,16.24272504894475,-130.3143960856675
395.9110266468463,-0.03253351656406711,16.27731892635373,-130.5126648333575
398.6581073580447,-0.03273242709454522,16.31176205965409,-130.7133338516931
401.4242490499327,-0.03254210472452136,16.34655068781359,-130.9042917652592
404.209583979631,-0.03382064592292229,16.38128538166016,-131.0991022211567
407.0142453219439,-0.03350386311871455,16.41640957041698,-131.2840311270417
409.8383671757266,-0.03298029274761808,16.44936121522917,-131.4759030598608
412.6820845702961,-0.03388816854296301,16.48458588594318,-131.6690781779741
415.5455334718879,-0.03442053693912372,16.51868898069242,-131.8586564088531
418.4288507901585,-0.03755188323358514,16.55396555153605,-132.0390806011145
421.3321743847289,-0.03776402343992811,16.58690675856503,-132.2374487402459
424.2556430717781,-0.03752144618951028,16.62102319998256,-132.4224770096159
427.1993966306786,-0.03988809675273261,16.65423670744708,-132.6290689310994
430.16357581068,-0.04045775492307769,16.68863402654932,-132.8113189815911
433.1483223376403,-0.04015726751051502,16.71993063508628,-133.0187286189159
436.1537789208006,-0.03933889371389915,16.75144126118712,-133.2136663103944
439.180089259609,-0.04039635848986788,16.78421630785704,-133.4134967971975
442.2273980505906,-0.04259075416354168,16.81645115453713,-133.5919630723951
445.295850994266,-0.04447469984925663,16.84807524239132,-133.7917088573452
448.3855948021191,-0.04400771032954539,16.87887777600377,-133.9757278413458
451.4967772036102,-0.04351026713477438,16.90970745576022,-134.1782283006717
454.6295469532404,-0.04319524313916093,16.94058192342114,-134.3966401209846
457.7840538376626,-0.04225818463270056,16.97009505234841,-134.6016742037231
460.9604486828438,-0.04062075734344017,16.99979061566393,-134.8053452162779
464.1588833612782,-0.0396250361576891,17.03020257716198,-135.0002016856102
467.3795107992464,-0.03974274201549566,17.05940809044909,-135.2032168005532
470.6224849841286,-0.04270522207366063,17.09073765312301,-135.3909346007973
473.8879609717661,-0.04090903801099705,17.11929816347872,-135.60265540914
477.176094893875,-0.04132510583532721,17.14944123716782,-135.7799817808832
480.4870439655134,-0.04343201427409685,17.17819827341508,-135.9907535611327
483.8209664925957,-0.04216745378799631,17.20696808726113,-136.1836690713841
487.1780218794636,-0.04509386003049176,17.23772063284614,-136.3868387418649
490.5583706365056,-0.04424583050565752,17.26558858158336,-136.580050509537
493.9621743878326,-0.04223208114422402,17.29327928443721,-136.7808543513029
497.3895958790068,-0.04304730504303315,17.32122306652432,-136.9719222626096
500.8407989848212,-0.04039335149395772,17.34828195119615,-137.1753137143636
504.3159487171364,-0.04244098915067121,17.37728061936962,-137.3614243220945
507.8152112327681,-0.04509760447333092,17.4056385545524,-137.5651676937068
511.3387538414331,-0.04221411838679315,17.4319470577536,-137.7560160035911
514.8867450137498,-0.04569587394679066,17.46085716570803,-137.9730431724791
518.4593543892913,-0.03893451976207763,17.48416323697677,-138.1704888080695
522.056752784698,-0.0425910195879214,17.51146693007398,-138.3615963386997
525.6791122018431,-0.04385536111790523,17.53871593933477,-138.5790951660755
529.3266058360567,-0.04042037040109276,17.56145846125851,-138.7539450000347
532.9994080844093,-0.04298728298771488,17.59098382985434,-138.9551483300376
536.6976945540476,-0.04477560392809729,17.6170898818262,-139.1553327899766
540.421642070592,-0.04363236100147162,17.64184716885046,-139.3535270782085
544.1714286865898,-0.04427450204374671,17.66883441195846,-139.5435113781559
547.9472336900293,-0.04454794581955214,17.69425227901185,-139.7339914528738
551.7492376129128,-0.04206975727749345,17.71790050064666,-139.9363943542749
555.5776222398878,-0.04176491760875842,17.74170456051713,-140.1328166548224
559.4325706169383,-0.04512641276169269,17.76906896328172,-140.324710014455
563.3142670601358,-0.04607089983227088,17.79418258295013,-140.518817432803
567.2228971644549,-0.0465953599728158,17.82074476032914,-140.7079701987373
571.1586478126435,-0.04501409337063236,17.84142439557786,-140.9125627597072
575.1217071841613,-0.04508056770136801,17.86582854400538,-141.0855834344402
579.1122647641764,-0.04394334439711939,17.88837285914479,-141.2970094786181
583.1305113526225,-0.04238979368141028,17.91057845488979,-141.4991511854773
